!Keysight Technologies,N5227A,US56070638,A.10.60.06
!Date: Monday, July 16, 2018 20:45:56
!Correction: S11(Full 2 Port(1,2)) 
!S21(Full 2 Port(1,2)) 
!S12(Full 2 Port(1,2)) 
!S22(Full 2 Port(1,2)) 
!S2P File: Measurements: S11, S21, S12, S22:
# Hz S  dB   R 50
3950000000 -4.6938157 142.93419 -2.5138073 -130.56578 -2.5084059 -130.55374 -5.695385 133.19096
3954750000 -4.7483711 142.88747 -2.4856634 -130.92145 -2.4937329 -130.89757 -5.8557734 132.69817
3959500000 -4.7887812 142.86606 -2.4561329 -131.29828 -2.4595675 -131.27196 -5.9803886 131.98491
3964250000 -4.8309746 142.77399 -2.4345558 -131.65109 -2.4355214 -131.66113 -6.0544071 131.27948
3969000000 -4.8612757 142.55318 -2.4146113 -132.03912 -2.4153111 -132.02376 -6.0725565 130.61406
3973750000 -4.9134212 142.12959 -2.4095256 -132.32776 -2.4072104 -132.33469 -6.0192533 130.1142
3978500000 -4.9562478 141.53183 -2.4010389 -132.60817 -2.4098842 -132.5625 -5.9439101 129.89491
3983250000 -5.015636 140.80409 -2.4103761 -132.80882 -2.410676 -132.77747 -5.883173 129.88292
3988000000 -5.0776114 140.06641 -2.4122982 -133.02371 -2.4111249 -133.01888 -5.8634543 130.00816
3992750000 -5.1382289 139.36783 -2.4053628 -133.24152 -2.4048305 -133.28787 -5.9070549 130.11516
3997500000 -5.1965041 138.892 -2.3895209 -133.51324 -2.3885033 -133.50522 -6.0135212 130.09114
4002250000 -5.2687659 138.59404 -2.3650537 -133.81296 -2.365113 -133.86261 -6.1597781 129.90198
4007000000 -5.3281751 138.4776 -2.33114 -134.23421 -2.3398547 -134.22581 -6.326961 129.45866
4011750000 -5.3901124 138.45749 -2.3024046 -134.6579 -2.3033323 -134.63293 -6.4682961 128.79022
4016500000 -5.4506736 138.40678 -2.2715218 -135.03731 -2.2873344 -135.05504 -6.5687356 128.09976
4021250000 -5.5027642 138.17578 -2.260041 -135.41075 -2.2569127 -135.43059 -6.5862966 127.34798
4026000000 -5.5623727 137.77956 -2.2459564 -135.75383 -2.2487721 -135.74509 -6.5463266 126.91888
4030750000 -5.6197734 137.17226 -2.2404108 -136.0208 -2.244406 -136.02359 -6.4745359 126.72487
4035500000 -5.685369 136.37437 -2.2425404 -136.27998 -2.2416711 -136.27364 -6.4003673 126.72975
4040250000 -5.758791 135.55341 -2.239923 -136.48988 -2.2429578 -136.49173 -6.3665414 126.96536
4045000000 -5.8343263 134.82663 -2.2373481 -136.68886 -2.2384865 -136.71515 -6.4008217 127.22437
4049750000 -5.9222674 134.3105 -2.231956 -136.91786 -2.2214091 -136.9131 -6.4994912 127.365
4054500000 -6.0019455 133.95773 -2.2014854 -137.22075 -2.200532 -137.22543 -6.6593504 127.30193
4059250000 -6.0807891 133.79637 -2.1648397 -137.60617 -2.1685331 -137.60757 -6.834815 126.92766
4064000000 -6.1657243 133.79802 -2.1408677 -137.99561 -2.1386936 -137.97778 -6.9970236 126.35003
4068750000 -6.2415724 133.71713 -2.1080706 -138.41679 -2.1089804 -138.42018 -7.1071019 125.67062
4073500000 -6.3261967 133.57843 -2.0981376 -138.80931 -2.1002409 -138.83022 -7.1594539 124.99177
4078250000 -6.3956318 133.2018 -2.073772 -139.21887 -2.080637 -139.18146 -7.1180787 124.58247
4083000000 -6.4683623 132.573 -2.0748577 -139.52122 -2.0785167 -139.50735 -7.0449648 124.38671
4087750000 -6.5426879 131.81172 -2.0780511 -139.80728 -2.077585 -139.79001 -6.9601469 124.45054
4092500000 -6.6295052 130.96577 -2.0748885 -140.01942 -2.073559 -139.99895 -6.9050541 124.77674
4097250000 -6.7138219 130.23817 -2.072144 -140.21323 -2.0706928 -140.21629 -6.9225821 125.12063
4102000000 -6.8205919 129.64349 -2.0571997 -140.43025 -2.0672379 -140.45959 -7.0229197 125.43908
4106750000 -6.9386182 129.24347 -2.0398493 -140.72853 -2.0427661 -140.72049 -7.1799207 125.46095
4111500000 -7.0441961 129.12639 -2.0169892 -141.05716 -2.0122156 -141.06374 -7.364759 125.26272
4116250000 -7.1428156 129.19469 -1.9777243 -141.45068 -1.9876198 -141.44142 -7.5491471 124.80972
4121000000 -7.2452383 129.26703 -1.9518349 -141.88203 -1.9545052 -141.88615 -7.6801639 124.15369
4125750000 -7.3326311 129.19087 -1.9347132 -142.29053 -1.9376705 -142.28114 -7.7444091 123.50636
4130500000 -7.4338036 128.97537 -1.9262133 -142.70689 -1.9311231 -142.71222 -7.7369957 123.0302
4135250000 -7.5187492 128.46275 -1.9215147 -143.03925 -1.9200538 -143.07372 -7.6519432 122.81351
4140000000 -7.604147 127.86162 -1.9167415 -143.31979 -1.9227585 -143.35548 -7.5694485 122.92609
4144750000 -7.712049 127.0274 -1.9227614 -143.54903 -1.9231555 -143.57355 -7.5080976 123.22852
4149500000 -7.8221984 126.28551 -1.9136868 -143.74716 -1.9134375 -143.77998 -7.4967837 123.69595
4154250000 -7.9443374 125.64538 -1.9087008 -144.00377 -1.9135706 -143.97263 -7.5886421 124.10156
4159000000 -8.0754061 125.33292 -1.8861181 -144.20236 -1.8876793 -144.21796 -7.7305045 124.3427
4163750000 -8.2101097 125.23981 -1.8626473 -144.51022 -1.8549371 -144.53087 -7.9363952 124.26862
4168500000 -8.3331146 125.36818 -1.8277166 -144.8779 -1.828015 -144.86568 -8.1289024 124.03033
4173250000 -8.4499626 125.61597 -1.8020194 -145.25201 -1.8085929 -145.25397 -8.2887316 123.43925
4178000000 -8.5492325 125.78546 -1.7912329 -145.65955 -1.787879 -145.65881 -8.3746767 122.88
4182750000 -8.6539211 125.70995 -1.7821549 -146.09016 -1.7842207 -146.08496 -8.3732643 122.31753
4187500000 -8.734252 125.45194 -1.7783498 -146.45107 -1.7798414 -146.45059 -8.2939034 122.12329
4192250000 -8.8339901 124.90766 -1.7807063 -146.78436 -1.7787421 -146.7645 -8.1925287 122.18497
4197000000 -8.943265 124.21875 -1.78064 -147.03247 -1.7838736 -147.03458 -8.1007252 122.52146
4201750000 -9.0674782 123.60454 -1.7766993 -147.25797 -1.7804817 -147.25325 -8.070756 123.06727
4206500000 -9.2049942 123.05963 -1.7619655 -147.43901 -1.7684389 -147.43384 -8.1360559 123.59451
4211250000 -9.354291 122.81324 -1.7514924 -147.64861 -1.746662 -147.64076 -8.2856979 124.04074
4216000000 -9.5054989 122.95845 -1.7226332 -147.89009 -1.7280848 -147.90161 -8.5028524 124.10725
4220750000 -9.6493416 123.27917 -1.6888485 -148.17073 -1.6975707 -148.17763 -8.7356424 123.95351
4225500000 -9.7830276 123.73742 -1.6694649 -148.55151 -1.6766996 -148.53424 -8.9359512 123.44794
4230250000 -9.8890896 124.11005 -1.6515729 -148.96568 -1.6546546 -148.93918 -9.0462198 122.94898
4235000000 -10.003037 124.28006 -1.6524122 -149.33035 -1.6550928 -149.34395 -9.0522566 122.43288
4239750000 -10.092975 124.19338 -1.6544278 -149.72034 -1.6516984 -149.74298 -8.9655266 122.18453
4244500000 -10.165459 123.68619 -1.654232 -150.04965 -1.6583228 -150.04984 -8.8428974 122.2323
4249250000 -10.26495 123.11689 -1.6629083 -150.33188 -1.6617757 -150.29308 -8.7322407 122.68295
4254000000 -10.379342 122.56587 -1.6651919 -150.51564 -1.6624339 -150.53354 -8.6896858 123.25224
4258750000 -10.497806 122.14297 -1.660148 -150.69484 -1.6577194 -150.70175 -8.7355528 123.92511
4263500000 -10.643968 122.10663 -1.6381574 -150.90578 -1.6423811 -150.87202 -8.8831358 124.43561
4268250000 -10.79322 122.4006 -1.617162 -151.09015 -1.6204648 -151.09233 -9.1178694 124.65392
4273000000 -10.935132 122.99072 -1.59402 -151.31769 -1.5899451 -151.32172 -9.3640413 124.59608
4277750000 -11.047132 123.77043 -1.5683177 -151.6333 -1.5649682 -151.64139 -9.5885639 124.18572
4282500000 -11.150294 124.41376 -1.5503746 -152.01547 -1.5510453 -151.99783 -9.7425261 123.58356
4287250000 -11.218629 124.83042 -1.5410529 -152.36659 -1.5463302 -152.36458 -9.7586432 123.07874
4292000000 -11.280493 124.87782 -1.5436405 -152.74417 -1.5444841 -152.76056 -9.6760254 122.73764
4296750000 -11.329728 124.70364 -1.5567009 -153.10565 -1.5554354 -153.08876 -9.5531826 122.7515
4301500000 -11.405733 124.26069 -1.5604128 -153.37508 -1.5660322 -153.41441 -9.4186907 123.02141
4306250000 -11.489963 123.83958 -1.571432 -153.64597 -1.5681354 -153.63513 -9.3542776 123.60894
4311000000 -11.605987 123.43952 -1.5729109 -153.80324 -1.5664834 -153.82866 -9.3825741 124.2625
4315750000 -11.697693 123.54241 -1.5535969 -153.97874 -1.5617226 -153.96863 -9.5284338 124.80159
4320500000 -11.818617 123.92834 -1.5340118 -154.13599 -1.5348787 -154.1301 -9.7694168 125.09912
4325250000 -11.912786 124.67444 -1.508532 -154.32008 -1.509365 -154.34113 -10.058775 125.10136
4330000000 -11.99788 125.58552 -1.483886 -154.55197 -1.4897686 -154.58781 -10.328539 124.74203
4334750000 -12.035856 126.52895 -1.4657801 -154.85764 -1.4661849 -154.87666 -10.493049 124.17781
4339500000 -12.054778 127.17373 -1.4656574 -155.20139 -1.4632454 -155.21678 -10.558891 123.56633
4344250000 -12.046144 127.41928 -1.4684503 -155.59674 -1.4658016 -155.56216 -10.484808 123.06184
4349000000 -12.049976 127.37257 -1.4736943 -155.93242 -1.4719833 -155.93362 -10.345456 122.8543
4353750000 -12.089557 127.07571 -1.4852922 -156.22762 -1.4927719 -156.22182 -10.214472 123.04865
4358500000 -12.141711 126.72486 -1.4970109 -156.48442 -1.4998497 -156.46924 -10.119316 123.4854
4363250000 -12.214296 126.41321 -1.5010997 -156.65648 -1.499578 -156.65065 -10.135657 124.01945
4368000000 -12.308681 126.42381 -1.4850433 -156.81749 -1.4900587 -156.82512 -10.287064 124.7305
4372750000 -12.38454 126.85003 -1.4725435 -156.94765 -1.4709361 -156.92715 -10.571237 125.08031
4377500000 -12.449541 127.51017 -1.4470553 -157.10074 -1.4386631 -157.08177 -10.907088 125.19282
4382250000 -12.480872 128.46007 -1.4137385 -157.31529 -1.4197165 -157.28325 -11.243316 124.93137
4387000000 -12.504972 129.39308 -1.4022489 -157.54343 -1.3990675 -157.54678 -11.507274 124.22964
4391750000 -12.467771 130.00031 -1.3965782 -157.83669 -1.3903415 -157.84097 -11.613117 123.61435
4396500000 -12.422036 130.2581 -1.3993701 -158.18382 -1.3988416 -158.17677 -11.561508 123.0098
4401250000 -12.384018 130.11862 -1.4139711 -158.50758 -1.4111458 -158.46628 -11.411148 122.70759
4406000000 -12.361968 129.69804 -1.4270271 -158.83095 -1.4258896 -158.7984 -11.232745 122.73022
4410750000 -12.350436 129.06738 -1.4392201 -159.08563 -1.4441264 -159.04706 -11.117162 123.12035
4415500000 -12.397698 128.60968 -1.4526187 -159.26851 -1.4510809 -159.27031 -11.130502 123.82305
4420250000 -12.437948 128.51535 -1.4453689 -159.41986 -1.4406953 -159.43492 -11.285949 124.58189
4425000000 -12.483347 128.69507 -1.4224676 -159.53128 -1.4252582 -159.51567 -11.601864 125.19416
4429750000 -12.509223 129.26147 -1.3990917 -159.65163 -1.4032253 -159.63271 -12.008028 125.51424
4434500000 -12.548552 130.04086 -1.3798991 -159.75893 -1.3749113 -159.74814 -12.422215 125.31672
4439250000 -12.538677 130.76311 -1.3527678 -159.91229 -1.353672 -159.88615 -12.766137 124.5955
4444000000 -12.513335 131.20518 -1.3418989 -160.11331 -1.3385323 -160.11783 -12.925932 123.77188
4448750000 -12.46923 131.23509 -1.3421793 -160.3773 -1.3388101 -160.36526 -12.88725 122.96862
4453500000 -12.428084 130.8506 -1.3491701 -160.64952 -1.3478256 -160.63126 -12.695166 122.43702
4458250000 -12.382335 130.21442 -1.3623835 -160.92688 -1.3625969 -160.92758 -12.465063 122.30463
4463000000 -12.348602 129.37857 -1.3677381 -161.18401 -1.3757192 -161.17699 -12.297161 122.48703
4467750000 -12.350255 128.59476 -1.3770614 -161.40096 -1.3726166 -161.43163 -12.249836 123.14355
4472500000 -12.371986 128.10838 -1.3663595 -161.61064 -1.3671527 -161.5979 -12.409256 123.86285
4477250000 -12.43375 128.2355 -1.3506403 -161.74593 -1.3574365 -161.74338 -12.739486 124.38297
4482000000 -12.472001 128.59064 -1.3307489 -161.87105 -1.3247387 -161.87852 -13.239918 124.59541
4486750000 -12.514168 129.33878 -1.3013994 -161.97527 -1.3051285 -161.97734 -13.81682 124.37866
4491500000 -12.519535 129.94666 -1.2745372 -162.1319 -1.2809311 -162.1432 -14.27214 123.47717
4496250000 -12.506883 130.33891 -1.2576965 -162.33553 -1.2671691 -162.36424 -14.541979 122.20587
4501000000 -12.47712 130.33994 -1.2563436 -162.5826 -1.2641741 -162.5956 -14.575833 121.02442
4505750000 -12.439709 129.95854 -1.2640502 -162.88329 -1.2667348 -162.8817 -14.402345 120.25768
4510500000 -12.388474 129.1982 -1.2746636 -163.19174 -1.2785281 -163.16319 -14.139398 119.9302
4515250000 -12.343533 128.21016 -1.2923721 -163.46271 -1.2873563 -163.46515 -13.917763 120.24612
4520000000 -12.327259 127.32783 -1.2962253 -163.72864 -1.2931424 -163.71141 -13.846394 120.90651
4524750000 -12.339841 126.71548 -1.2916884 -163.92763 -1.2989528 -163.93648 -13.986391 121.70644
4529500000 -12.382766 126.49202 -1.284417 -164.12593 -1.2872148 -164.12468 -14.392282 122.34967
4534250000 -12.433453 126.65346 -1.2640998 -164.25183 -1.2688323 -164.27763 -15.017426 122.69692
4539000000 -12.479416 127.11652 -1.2487578 -164.42632 -1.2427984 -164.42337 -15.718413 122.52357
4543750000 -12.493907 127.70232 -1.2188067 -164.57709 -1.2251233 -164.57179 -16.380442 121.76781
4548500000 -12.493454 128.08987 -1.215217 -164.76126 -1.2120097 -164.76135 -16.844816 120.18472
4553250000 -12.457414 128.16103 -1.2051992 -164.92804 -1.1995014 -164.93042 -16.951237 118.33327
4558000000 -12.424791 127.68252 -1.2060512 -165.19138 -1.2071506 -165.18147 -16.748796 117.26484
4562750000 -12.361519 126.80738 -1.2153389 -165.47211 -1.2120249 -165.49091 -16.402912 116.61469
4567500000 -12.313099 125.78803 -1.2269661 -165.74948 -1.2199459 -165.77267 -16.106298 116.89983
4572250000 -12.282177 124.6944 -1.2422343 -166.05429 -1.2362748 -166.04176 -15.95995 117.59646
4577000000 -12.285092 123.94682 -1.2445021 -166.29176 -1.2479999 -166.27946 -16.082142 118.74339
4581750000 -12.323676 123.48906 -1.2409565 -166.52765 -1.2424235 -166.47643 -16.532494 119.80093
4586500000 -12.38764 123.50204 -1.2329408 -166.66859 -1.2311045 -166.67526 -17.284216 120.61227
4591250000 -12.442 123.84349 -1.2101382 -166.80521 -1.2075573 -166.8134 -18.262621 120.64134
4596000000 -12.500195 124.3869 -1.1892496 -166.98425 -1.1878532 -166.97552 -19.278786 119.91005
4600750000 -12.551923 124.80142 -1.1869458 -167.14011 -1.1760012 -167.11153 -20.022839 117.81713
4605500000 -12.558583 124.85995 -1.1763241 -167.30026 -1.1718929 -167.33099 -20.301329 115.44271
4610250000 -12.538709 124.42549 -1.1736735 -167.54388 -1.1717927 -167.56084 -20.132816 113.34446
4615000000 -12.502649 123.50178 -1.1813763 -167.83041 -1.1780859 -167.81032 -19.622421 112.6099
4619750000 -12.45437 122.20314 -1.1921272 -168.09718 -1.1895868 -168.11787 -19.124189 112.68439
4624500000 -12.418557 120.95979 -1.1984448 -168.38239 -1.1979263 -168.39417 -18.848724 113.80968
4629250000 -12.399088 119.97388 -1.2054397 -168.68573 -1.2050911 -168.69446 -18.88629 115.58799
4634000000 -12.434769 119.27346 -1.2134099 -168.90736 -1.2118655 -168.9386 -19.359705 116.98542
4638750000 -12.49025 119.16911 -1.2111477 -169.12099 -1.2001271 -169.12968 -20.327831 118.46278
4643500000 -12.58901 119.40944 -1.195972 -169.2963 -1.1947734 -169.30745 -21.722307 119.39455
4648250000 -12.696968 119.95744 -1.1838565 -169.44958 -1.1844884 -169.45401 -23.270164 118.95656
4653000000 -12.793198 120.36906 -1.1791158 -169.60672 -1.174637 -169.61057 -24.756397 116.10901
4657750000 -12.857863 120.57131 -1.1732367 -169.76442 -1.1692804 -169.75447 -25.484339 112.08359
4662500000 -12.886719 120.1817 -1.1700859 -169.97574 -1.1678921 -169.9467 -25.295935 108.44903
4667250000 -12.880559 119.29346 -1.1762737 -170.21695 -1.1745931 -170.20648 -24.506124 107.03304
4672000000 -12.844228 117.93118 -1.1777186 -170.47539 -1.1789023 -170.49187 -23.555862 107.99735
4676750000 -12.803037 116.47105 -1.1874435 -170.76387 -1.1865597 -170.78217 -22.94684 109.89793
4681500000 -12.788676 115.13064 -1.1934401 -171.04997 -1.1935271 -171.06964 -22.844326 112.19212
4686250000 -12.821848 114.27241 -1.2042642 -171.35284 -1.1990621 -171.34483 -23.367817 115.29176
4691000000 -12.923885 113.88226 -1.213607 -171.59485 -1.1987269 -171.57886 -24.757196 118.62805
4695750000 -13.030919 114.18761 -1.2029667 -171.78064 -1.2070475 -171.76407 -26.863794 121.69965
4700500000 -13.20595 114.56773 -1.2107755 -171.9332 -1.2045401 -171.93307 -29.968409 123.85352
4705250000 -13.381735 115.1063 -1.2007474 -172.08794 -1.2075305 -172.10031 -33.631176 122.06972
4710000000 -13.518308 115.3121 -1.2019948 -172.21759 -1.1966195 -172.22929 -36.534721 114.2243
4714750000 -13.623984 114.91434 -1.1973966 -172.44629 -1.2003803 -172.45103 -36.594707 101.42404
4719500000 -13.690417 113.90396 -1.2019824 -172.67892 -1.1996773 -172.67882 -34.211994 99.188049
4724250000 -13.668096 112.33012 -1.2037514 -172.94673 -1.2013851 -172.91885 -31.711267 101.78713
4729000000 -13.657538 110.53267 -1.2084711 -173.22197 -1.2123538 -173.21289 -29.942015 107.25327
4733750000 -13.610599 108.84732 -1.2140425 -173.52222 -1.2194353 -173.52388 -29.265114 112.84512
4738500000 -13.639886 107.62109 -1.2223741 -173.80939 -1.2213545 -173.78882 -29.722717 119.93475
4743250000 -13.748545 106.966 -1.2333881 -174.06976 -1.2300365 -174.09416 -31.62722 130.15985
4748000000 -13.935623 106.91468 -1.2383065 -174.27362 -1.2380868 -174.28357 -35.399048 150.36563
4752750000 -14.208273 107.24181 -1.2415006 -174.43938 -1.2381332 -174.46292 -38.998352 -163.73402
4757500000 -14.470572 107.7711 -1.2444202 -174.62114 -1.2397172 -174.60092 -37.05732 -114.38377
4762250000 -14.753141 107.95651 -1.2465303 -174.75993 -1.2479924 -174.75511 -35.16011 -93.606964
4767000000 -14.966942 107.4243 -1.2500547 -174.95464 -1.2473495 -174.94267 -34.857357 -83.345352
4771750000 -15.093017 106.19855 -1.2524132 -175.15532 -1.2468443 -175.17622 -37.12891 -78.777657
4776500000 -15.135822 104.12762 -1.2458194 -175.4185 -1.248854 -175.44347 -42.835644 -82.651878
4781250000 -15.119591 102.00218 -1.2504991 -175.68454 -1.2491652 -175.70203 -51.589909 -145.31578
4786000000 -15.09608 99.878593 -1.2605009 -176.00217 -1.2599952 -176.02917 -43.501999 165.04684
4790750000 -15.139934 98.29232 -1.2602191 -176.28557 -1.2654592 -176.28458 -40.464622 -179.49777
4795500000 -15.298957 97.420311 -1.2717698 -176.56245 -1.2687387 -176.59871 -37.561031 -152.59821
4800250000 -15.58476 97.192726 -1.2896497 -176.79042 -1.2822959 -176.85437 -34.055702 -126.43672
4805000000 -15.990764 97.470284 -1.293223 -176.99471 -1.2864429 -177.00117 -30.679337 -108.53395
4809750000 -16.476627 97.913628 -1.3008868 -177.16563 -1.2990489 -177.18935 -28.441137 -97.996704
4814500000 -16.96834 97.839638 -1.3120321 -177.3152 -1.3124634 -177.31285 -27.234705 -91.219986
4819250000 -17.389357 97.140594 -1.3214798 -177.48259 -1.3111329 -177.49823 -26.991997 -87.217224
4824000000 -17.663668 95.406891 -1.3179568 -177.70079 -1.3138508 -177.70857 -27.626707 -85.109871
4828750000 -17.818638 92.58844 -1.3137653 -177.95206 -1.3109659 -177.96198 -29.051296 -85.074791
4833500000 -17.802868 89.426422 -1.3189168 -178.20769 -1.3131884 -178.21655 -31.011955 -89.737503
4838250000 -17.772007 86.492722 -1.3139403 -178.51321 -1.3160522 -178.50298 -32.386848 -99.549911
4843000000 -17.797066 84.460152 -1.3198923 -178.81157 -1.3187279 -178.83014 -32.236507 -108.63041
4847750000 -18.005228 82.820129 -1.3278736 -179.10663 -1.3238261 -179.12694 -30.532684 -111.32422
4852500000 -18.451435 82.092964 -1.3428277 -179.3455 -1.3420228 -179.36534 -28.365902 -107.72713
4857250000 -19.164631 81.978592 -1.3485324 -179.57443 -1.3562858 -179.565 -26.349037 -102.68176
4862000000 -20.044781 82.052132 -1.3655627 -179.73045 -1.3625925 -179.75705 -24.825714 -97.825516
4866750000 -21.036886 81.329613 -1.3809416 -179.89227 -1.3747454 -179.89487 -23.839357 -93.157761
4871500000 -22.023132 79.650284 -1.3868526 179.93767 -1.3867967 179.91002 -23.567627 -90.534271
4876250000 -22.712076 75.658363 -1.3952668 179.75816 -1.3929963 179.73355 -23.892176 -88.572945
4881000000 -23.04829 70.258324 -1.389526 179.54008 -1.3946868 179.53416 -24.745152 -89.052788
4885750000 -23.007698 63.812138 -1.3928639 179.29483 -1.3851516 179.23544 -25.87175 -91.57328
4890500000 -22.697338 59.109093 -1.3849241 178.97672 -1.3831404 178.93752 -26.836287 -96.574654
4895250000 -22.596087 54.911823 -1.3840743 178.67041 -1.3854681 178.64929 -27.157293 -102.44415
4900000000 -22.733776 51.768147 -1.3989177 178.37024 -1.3963475 178.3586 -26.479477 -105.56047
4904750000 -23.427526 48.336948 -1.4041736 178.09242 -1.4117948 178.06055 -25.256569 -105.80965
4909500000 -24.647316 44.950985 -1.415756 177.82486 -1.4215758 177.84087 -23.89238 -103.16009
4914250000 -26.472378 38.366146 -1.436241 177.64619 -1.4387292 177.62097 -22.687542 -99.91198
