!Keysight Technologies,N5227A,US56070638,A.10.60.06
!Date: Monday, July 16, 2018 20:51:23
!Correction: S11(Full 2 Port(1,2)) 
!S21(Full 2 Port(1,2)) 
!S12(Full 2 Port(1,2)) 
!S22(Full 2 Port(1,2)) 
!S2P File: Measurements: S11, S21, S12, S22:
# Hz S  dB   R 50
3950000000 -3.0626574 166.24266 -3.0038965 -115.06979 -3.0007031 -115.09013 -2.8520021 140.56335
3954750000 -3.0657957 166.5244 -2.9704645 -115.40991 -2.9744842 -115.41959 -2.9327052 140.22531
3959500000 -3.0640011 166.81261 -2.9262466 -115.76733 -2.9285398 -115.75779 -3.0175748 139.84084
3964250000 -3.0713539 167.02351 -2.8937643 -116.10095 -2.8906574 -116.14117 -3.1097543 139.53317
3969000000 -3.0932841 167.02698 -2.8497837 -116.46665 -2.846926 -116.48084 -3.1736298 139.22646
3973750000 -3.1473608 166.81421 -2.8175628 -116.80947 -2.8280895 -116.82111 -3.2016487 138.92282
3978500000 -3.2057495 166.38519 -2.7885985 -117.13489 -2.8063273 -117.14425 -3.2016106 138.64915
3983250000 -3.2901595 165.80533 -2.7844987 -117.44452 -2.7922223 -117.44616 -3.1884253 138.39413
3988000000 -3.3646572 165.27005 -2.7814751 -117.75005 -2.7897663 -117.75483 -3.1828284 138.13802
3992750000 -3.4181807 164.85529 -2.7810237 -118.04011 -2.781368 -118.09382 -3.1882513 137.8176
3997500000 -3.4493601 164.7121 -2.77039 -118.35584 -2.7710774 -118.35976 -3.2271366 137.47813
4002250000 -3.460448 164.82787 -2.7498128 -118.70698 -2.7535572 -118.75069 -3.2894964 137.09026
4007000000 -3.454565 165.12578 -2.7168679 -119.08909 -2.7200837 -119.10606 -3.3735564 136.70082
4011750000 -3.4533939 165.47446 -2.6790068 -119.47402 -2.6872654 -119.4837 -3.4814415 136.32985
4016500000 -3.4637668 165.75864 -2.6409318 -119.86008 -2.6430664 -119.88304 -3.5749002 136.01785
4021250000 -3.4846747 165.84706 -2.6089897 -120.21902 -2.6003885 -120.24961 -3.6523104 135.65686
4026000000 -3.542882 165.69434 -2.5772855 -120.60867 -2.5825565 -120.6052 -3.6989486 135.40782
4030750000 -3.60706 165.30713 -2.5597281 -120.96642 -2.55951 -120.97349 -3.7093754 135.10553
4035500000 -3.688302 164.7502 -2.5522466 -121.30867 -2.5528023 -121.3108 -3.6982026 134.84651
4040250000 -3.7689505 164.18631 -2.5489111 -121.6246 -2.5569396 -121.65942 -3.69244 134.58406
4045000000 -3.828269 163.81485 -2.5498261 -121.91123 -2.5536654 -121.97808 -3.700907 134.28679
4049750000 -3.8673434 163.68617 -2.5524688 -122.22969 -2.5462251 -122.26093 -3.7353086 133.94868
4054500000 -3.8748081 163.75583 -2.5368083 -122.56747 -2.5386052 -122.56931 -3.8089225 133.60966
4059250000 -3.8744457 164.04886 -2.5061879 -122.89443 -2.5102084 -122.92699 -3.8984959 133.21072
4064000000 -3.8665252 164.50029 -2.4802997 -123.26018 -2.4772029 -123.27743 -4.0051799 132.91031
4068750000 -3.8661869 164.81252 -2.4390807 -123.64705 -2.447088 -123.66405 -4.1187358 132.58842
4073500000 -3.8983836 164.98225 -2.411751 -124.01685 -2.4201674 -124.02966 -4.2167859 132.33145
4078250000 -3.9419045 164.93387 -2.3812747 -124.39812 -2.3907807 -124.39646 -4.2692165 132.15715
4083000000 -4.0130138 164.54492 -2.372437 -124.79228 -2.376509 -124.7736 -4.2925897 131.90688
4087750000 -4.0923271 164.01843 -2.3725049 -125.12956 -2.3724585 -125.14372 -4.2918119 131.65102
4092500000 -4.1695046 163.43251 -2.3696477 -125.47964 -2.3719532 -125.45493 -4.2780867 131.41827
4097250000 -4.2285337 162.97231 -2.3731065 -125.76642 -2.380373 -125.77998 -4.2792959 131.14056
4102000000 -4.2774048 162.78915 -2.376318 -126.03535 -2.3819952 -126.0581 -4.3088756 130.82755
4106750000 -4.2937436 162.87447 -2.3731341 -126.35458 -2.3784854 -126.33221 -4.3782401 130.4464
4111500000 -4.2870188 163.19502 -2.3639562 -126.63732 -2.3598473 -126.67052 -4.473206 130.09409
4116250000 -4.2624278 163.63716 -2.3349462 -126.97433 -2.33641 -126.96899 -4.5811591 129.8071
4121000000 -4.2454958 164.06894 -2.2992263 -127.32082 -2.3084252 -127.31578 -4.7006011 129.50537
4125750000 -4.2478375 164.34474 -2.2699757 -127.67137 -2.2842405 -127.67645 -4.8020473 129.24515
4130500000 -4.2853341 164.34131 -2.2543018 -128.03123 -2.2621784 -128.07793 -4.877635 129.03018
4135250000 -4.3493061 164.06444 -2.2412422 -128.41493 -2.2463667 -128.43854 -4.896832 128.8266
4140000000 -4.428575 163.64603 -2.2463284 -128.72345 -2.2430112 -128.76802 -4.9096031 128.60027
4144750000 -4.5084329 163.11438 -2.2489014 -129.05577 -2.2523558 -129.04266 -4.889842 128.33226
4149500000 -4.5746918 162.64297 -2.2556119 -129.31488 -2.2479186 -129.33217 -4.8713446 128.04405
4154250000 -4.61482 162.3663 -2.2623515 -129.57121 -2.2708099 -129.56232 -4.8952141 127.73403
4159000000 -4.6288548 162.36795 -2.2620113 -129.78667 -2.271759 -129.78456 -4.944325 127.4425
4163750000 -4.6174016 162.61949 -2.2518177 -130.01555 -2.2499857 -130.0513 -5.0290923 127.06048
4168500000 -4.5816875 163.02344 -2.2307377 -130.29739 -2.2330387 -130.29282 -5.1325202 126.80354
4173250000 -4.5566549 163.43674 -2.2111695 -130.57097 -2.213454 -130.5784 -5.2560201 126.55895
4178000000 -4.5394611 163.75883 -2.1907222 -130.87151 -2.1870098 -130.8756 -5.3610873 126.36214
4182750000 -4.5526743 163.77763 -2.1714137 -131.21519 -2.1692882 -131.24585 -5.4396658 126.15903
4187500000 -4.5930324 163.59435 -2.1545417 -131.52939 -2.1605034 -131.55074 -5.466229 126.01859
4192250000 -4.6638803 163.1394 -2.1623662 -131.90126 -2.1615105 -131.86165 -5.4657636 125.84373
4197000000 -4.748549 162.58347 -2.1716647 -132.15376 -2.1745481 -132.16231 -5.4395123 125.598
4201750000 -4.8046517 162.06375 -2.1827207 -132.3882 -2.1860764 -132.40633 -5.4127226 125.36426
4206500000 -4.8508015 161.73003 -2.1885176 -132.58772 -2.1980033 -132.57196 -5.4024129 125.06931
4211250000 -4.8588009 161.61485 -2.1939898 -132.73187 -2.1951776 -132.72771 -5.4294004 124.76705
4216000000 -4.8375926 161.8389 -2.1815193 -132.87595 -2.1919079 -132.88823 -5.4942212 124.3775
4220750000 -4.8015795 162.18433 -2.1623368 -133.00726 -2.1767595 -133.03554 -5.6052442 124.1104
4225500000 -4.766253 162.60918 -2.1476612 -133.20871 -2.1515651 -133.22943 -5.7142391 123.8592
4230250000 -4.7212472 162.84102 -2.1241717 -133.51167 -2.1231213 -133.51939 -5.8218107 123.70497
4235000000 -4.7298875 162.88911 -2.1053772 -133.80418 -2.1203518 -133.78169 -5.9033275 123.62252
4239750000 -4.7673745 162.62514 -2.1050775 -134.09288 -2.1063592 -134.10707 -5.9241052 123.50814
4244500000 -4.821454 162.0632 -2.1084092 -134.36697 -2.111526 -134.39513 -5.9064302 123.31631
4249250000 -4.9008203 161.43198 -2.1226933 -134.60196 -2.1289375 -134.63109 -5.8702455 123.15995
4254000000 -4.9616098 160.78577 -2.1394053 -134.80084 -2.1379957 -134.8224 -5.8121042 122.95884
4258750000 -4.9971538 160.33334 -2.150265 -134.94618 -2.1472998 -134.94734 -5.7748294 122.67864
4263500000 -5.0030532 160.14308 -2.1509016 -135.03993 -2.1555927 -135.04121 -5.7764654 122.33396
4268250000 -4.9761925 160.20795 -2.1485674 -135.10892 -2.1585636 -135.12918 -5.8162165 121.96317
4273000000 -4.9318867 160.46574 -2.1290221 -135.19423 -2.1390381 -135.18045 -5.8893414 121.67829
4277750000 -4.8799067 160.7753 -2.1097186 -135.25468 -2.1181803 -135.30649 -5.988842 121.42753
4282500000 -4.8370109 161.00478 -2.0926545 -135.49187 -2.0933754 -135.48578 -6.0862479 121.24952
4287250000 -4.8125801 160.9817 -2.0707891 -135.70706 -2.0765676 -135.70818 -6.1569123 121.21632
4292000000 -4.8359079 160.69435 -2.0652418 -135.96521 -2.0652966 -135.95804 -6.1832895 121.10147
4296750000 -4.8837385 160.14484 -2.0691154 -136.2339 -2.0749857 -136.22946 -6.1681824 121.02478
4301500000 -4.953701 159.47952 -2.0748553 -136.4384 -2.0890512 -136.48485 -6.1084824 120.81049
4306250000 -5.0235729 158.78163 -2.0999951 -136.67291 -2.0987005 -136.65009 -6.0298004 120.57658
4311000000 -5.0718265 158.1834 -2.1179903 -136.71432 -2.1161573 -136.76241 -5.9649386 120.27134
4315750000 -5.0721726 157.8503 -2.1131778 -136.77441 -2.1212056 -136.78607 -5.9197135 119.89246
4320500000 -5.0489912 157.75583 -2.1138303 -136.75125 -2.1115725 -136.77425 -5.9232769 119.55462
4325250000 -5.0029469 157.85733 -2.0983305 -136.76201 -2.0944209 -136.77388 -5.9664736 119.23994
4330000000 -4.9453459 158.12073 -2.0697162 -136.77792 -2.0785933 -136.79147 -6.0497088 118.96955
4334750000 -4.8877683 158.29521 -2.0482857 -136.89073 -2.0519443 -136.91135 -6.1249399 118.78963
4339500000 -4.85291 158.29671 -2.0365822 -137.04059 -2.0307794 -137.07561 -6.1947656 118.61285
4344250000 -4.8518391 157.9575 -2.0279543 -137.29768 -2.0314324 -137.29738 -6.2297564 118.50354
4349000000 -4.8810039 157.44537 -2.0274723 -137.54903 -2.0233254 -137.52788 -6.2079482 118.41541
4353750000 -4.9468894 156.78473 -2.0374994 -137.74171 -2.0419071 -137.75317 -6.141747 118.1944
4358500000 -5.0061274 156.07996 -2.0447071 -137.8979 -2.054137 -137.89572 -6.0477233 117.8979
4363250000 -5.0612693 155.46475 -2.0645096 -137.98016 -2.0591755 -137.9668 -5.944818 117.56158
4368000000 -5.0874977 155.07268 -2.0627122 -137.95215 -2.063385 -137.98947 -5.8806343 117.20087
4372750000 -5.0733318 154.92453 -2.0533028 -137.90211 -2.0549297 -137.90634 -5.8549113 116.75025
4377500000 -5.0397072 154.96309 -2.0398817 -137.82864 -2.0338545 -137.84218 -5.8650413 116.36753
4382250000 -4.9795108 155.09447 -2.0072124 -137.80548 -2.0079865 -137.80217 -5.9218411 116.05464
4387000000 -4.9246655 155.18405 -1.9699656 -137.84088 -1.9718261 -137.85779 -5.9911871 115.78083
4391750000 -4.8936429 155.16116 -1.9568229 -137.94765 -1.9537781 -137.96284 -6.0649133 115.66315
4396500000 -4.8842435 154.84637 -1.9463133 -138.14702 -1.9402062 -138.15317 -6.0913229 115.51771
4401250000 -4.9048557 154.26222 -1.9396061 -138.38318 -1.9396957 -138.37061 -6.0659866 115.49471
4406000000 -4.9591455 153.51617 -1.9438527 -138.61522 -1.9468513 -138.57216 -5.9959598 115.3291
4410750000 -5.008512 152.71745 -1.9532485 -138.74049 -1.9581908 -138.7617 -5.894527 115.07731
4415500000 -5.0646591 152.00175 -1.960066 -138.82422 -1.9708569 -138.85643 -5.7863588 114.73945
4420250000 -5.0935102 151.52411 -1.963587 -138.81209 -1.9688255 -138.83594 -5.7025189 114.38206
4425000000 -5.0880418 151.25479 -1.948999 -138.79846 -1.9507443 -138.78258 -5.6462002 114.00456
4429750000 -5.0557175 151.25938 -1.9226233 -138.67542 -1.9274195 -138.71071 -5.6385589 113.58036
4434500000 -5.0157089 151.41795 -1.8905334 -138.56949 -1.8915508 -138.57739 -5.6682572 113.15165
4439250000 -4.9737644 151.5078 -1.8496375 -138.54089 -1.8547094 -138.53104 -5.7287931 112.84097
4444000000 -4.9467788 151.47737 -1.8179781 -138.59865 -1.8214797 -138.64276 -5.7848101 112.63376
4448750000 -4.9435124 151.22365 -1.8024694 -138.75276 -1.8026012 -138.75838 -5.8313751 112.53271
4453500000 -4.9652705 150.66057 -1.7899705 -138.9351 -1.7953767 -138.97418 -5.8161216 112.44347
4458250000 -5.0055175 149.89268 -1.7992504 -139.1763 -1.8009182 -139.19814 -5.7630687 112.36153
4463000000 -5.040359 149.06102 -1.7993996 -139.33586 -1.8122964 -139.37144 -5.6664891 112.14545
4467750000 -5.0854764 148.23407 -1.8076619 -139.4455 -1.8062594 -139.50024 -5.5471835 111.8761
4472500000 -5.1141052 147.6521 -1.8052747 -139.49567 -1.8071381 -139.49445 -5.4410515 111.48106
4477250000 -5.1274076 147.39566 -1.7849312 -139.43695 -1.7881677 -139.45366 -5.3675957 111.01258
4482000000 -5.1023188 147.3145 -1.7586175 -139.3694 -1.7562848 -139.358 -5.3340521 110.58053
4486750000 -5.0783687 147.48767 -1.7252777 -139.25409 -1.7288615 -139.26463 -5.353591 110.16877
4491500000 -5.047461 147.55615 -1.6841283 -139.2083 -1.6928093 -139.24503 -5.3886275 109.8118
4496250000 -5.0256505 147.51936 -1.6448716 -139.26222 -1.6530716 -139.27441 -5.44805 109.51421
4501000000 -5.0233989 147.28404 -1.6188732 -139.40149 -1.6312349 -139.43591 -5.500423 109.35223
4505750000 -5.0457649 146.77547 -1.6091565 -139.61224 -1.6124709 -139.64003 -5.5124054 109.2449
4510500000 -5.088768 146.04292 -1.6066536 -139.86003 -1.6045276 -139.85872 -5.4803982 109.15957
4515250000 -5.1288443 145.20996 -1.614668 -140.08015 -1.6120187 -140.08936 -5.4011664 109.12276
4520000000 -5.1746368 144.38576 -1.6156769 -140.24072 -1.6120632 -140.2459 -5.2921052 108.89016
4524750000 -5.2060556 143.72191 -1.6066841 -140.29861 -1.611719 -140.34491 -5.1871715 108.54132
4529500000 -5.223011 143.31465 -1.587077 -140.34792 -1.592665 -140.35701 -5.1002626 108.05569
4534250000 -5.2161617 143.1956 -1.5524145 -140.31592 -1.5627713 -140.33943 -5.0668015 107.57133
4539000000 -5.2090425 143.26216 -1.5270764 -140.27849 -1.5196772 -140.28784 -5.0719733 107.12656
4543750000 -5.1921682 143.38091 -1.4851886 -140.302 -1.4819903 -140.3181 -5.1206923 106.79298
4548500000 -5.1876459 143.41963 -1.4556707 -140.35939 -1.4468861 -140.38867 -5.1885538 106.50603
4553250000 -5.1853752 143.26677 -1.4207019 -140.49202 -1.4243745 -140.50644 -5.2424479 106.33085
4558000000 -5.2170362 142.81094 -1.4022636 -140.72853 -1.4139807 -140.70413 -5.2768927 106.22449
4562750000 -5.2458062 142.14922 -1.4005975 -140.98672 -1.3990284 -140.98807 -5.2626762 106.05117
4567500000 -5.2928967 141.37715 -1.4035834 -141.2437 -1.4044343 -141.26997 -5.2093954 105.96411
4572250000 -5.3337164 140.58192 -1.4072322 -141.50581 -1.4097989 -141.51102 -5.1259794 105.73013
4577000000 -5.3710079 139.97925 -1.4121025 -141.68837 -1.4158542 -141.7294 -5.0302124 105.53181
4581750000 -5.3857646 139.61984 -1.3975992 -141.77692 -1.4008725 -141.74063 -4.9424982 105.24167
4586500000 -5.4016399 139.55649 -1.3863358 -141.79085 -1.3882953 -141.80084 -4.9021263 104.86259
4591250000 -5.396286 139.70174 -1.3528278 -141.78079 -1.3552629 -141.80609 -4.8906221 104.48378
4596000000 -5.3872313 140.00581 -1.3231837 -141.80759 -1.3174963 -141.80901 -4.9352045 104.16258
4600750000 -5.3905578 140.21967 -1.2969168 -141.81291 -1.2946557 -141.80316 -5.0068936 103.94008
4605500000 -5.4030733 140.23798 -1.2726526 -141.87199 -1.2720857 -141.9097 -5.0644035 103.7979
4610250000 -5.4164529 139.94777 -1.264325 -142.05461 -1.2610025 -142.06964 -5.1059594 103.80891
4615000000 -5.4391456 139.3748 -1.2504809 -142.23822 -1.2648611 -142.23691 -5.0920539 103.76765
4619750000 -5.4538002 138.57057 -1.2567756 -142.43219 -1.2592491 -142.44148 -5.0372696 103.66668
4624500000 -5.4683332 137.73076 -1.253355 -142.60995 -1.2600794 -142.6595 -4.9388351 103.44622
4629250000 -5.4813914 137.05318 -1.2527568 -142.8127 -1.2567571 -142.82539 -4.8391895 103.18584
4634000000 -5.4805169 136.51944 -1.2410585 -142.89206 -1.2450141 -142.93391 -4.7441812 102.76939
4638750000 -5.4759641 136.34129 -1.2115657 -142.93602 -1.2195532 -142.94389 -4.6869202 102.33018
4643500000 -5.4765811 136.39166 -1.1763231 -142.95995 -1.1754144 -142.97293 -4.6726627 101.76084
4648250000 -5.4872742 136.59273 -1.1233399 -142.98015 -1.1255597 -142.97932 -4.6975303 101.27274
4653000000 -5.5138354 136.73131 -1.077468 -143.04938 -1.0810695 -143.06367 -4.7684059 100.7458
4657750000 -5.5514593 136.71739 -1.0368464 -143.19223 -1.0421233 -143.18208 -4.8564701 100.4082
4662500000 -5.5993848 136.43385 -1.0039687 -143.40282 -1.0094137 -143.40532 -4.9264617 100.07581
4667250000 -5.6492958 135.84282 -0.99416798 -143.68513 -0.98766863 -143.696 -4.9657011 99.936005
4672000000 -5.6798725 135.02942 -0.97742295 -143.99785 -0.98288357 -144.00142 -4.9707432 99.832382
4676750000 -5.7063103 134.15225 -0.97762525 -144.30656 -0.9746508 -144.31494 -4.9150109 99.603447
4681500000 -5.7237244 133.34943 -0.96506315 -144.61954 -0.97462511 -144.63237 -4.8577361 99.212036
4686250000 -5.7421317 132.85387 -0.95730227 -144.90598 -0.96752203 -144.89134 -4.7958598 98.740837
4691000000 -5.7776685 132.66051 -0.95154667 -145.12268 -0.94537264 -145.14618 -4.7635913 98.258278
4695750000 -5.7962089 132.91843 -0.92494047 -145.28992 -0.92771244 -145.25294 -4.7711368 97.719849
4700500000 -5.8476825 133.25667 -0.90186077 -145.42021 -0.9000383 -145.45201 -4.8234611 97.220123
4705250000 -5.9029322 133.65355 -0.85905153 -145.56293 -0.86805832 -145.58189 -4.9092436 96.764687
4710000000 -5.966413 133.83992 -0.82905388 -145.70996 -0.82730234 -145.75169 -5.0148063 96.466095
4714750000 -6.0409908 133.70457 -0.80390948 -145.99506 -0.80829877 -145.97984 -5.1217728 96.147293
4719500000 -6.1158619 133.25081 -0.79053211 -146.29242 -0.78665316 -146.29454 -5.1916108 96.044777
4724250000 -6.1646194 132.55304 -0.78654224 -146.65921 -0.78539044 -146.64166 -5.2298918 95.958588
4729000000 -6.2072315 131.74362 -0.79097271 -147.01515 -0.79114419 -147.01234 -5.2252893 95.873604
4733750000 -6.2092319 130.96126 -0.78901094 -147.39018 -0.79418474 -147.40764 -5.1879768 95.661835
4738500000 -6.2147303 130.50525 -0.79822052 -147.68527 -0.80011159 -147.67717 -5.1466603 95.359413
4743250000 -6.2329168 130.37523 -0.79766679 -147.96356 -0.80229723 -147.99338 -5.1191373 94.905251
4748000000 -6.2669048 130.61545 -0.79361427 -148.19917 -0.7920723 -148.19186 -5.1414714 94.472702
4752750000 -6.3280568 131.15819 -0.77108753 -148.40077 -0.77157444 -148.43076 -5.2035308 94.049339
4757500000 -6.3999953 131.67032 -0.7494486 -148.63895 -0.7543 -148.603 -5.3207393 93.704689
4762250000 -6.4932046 132.13951 -0.72696275 -148.81612 -0.73600179 -148.83345 -5.4404659 93.472435
4767000000 -6.5909176 132.18231 -0.714257 -149.06648 -0.71298867 -149.05093 -5.5725746 93.370323
4771750000 -6.6747427 131.91721 -0.69795734 -149.3485 -0.69958436 -149.373 -5.6731815 93.278114
4776500000 -6.7427855 131.16595 -0.69068944 -149.69411 -0.70006853 -149.71272 -5.7328215 93.252823
4781250000 -6.7702107 130.38676 -0.69748628 -150.03423 -0.70328897 -150.05949 -5.7541256 93.182144
4786000000 -6.7898355 129.63359 -0.71930361 -150.44473 -0.71757126 -150.47075 -5.7402945 93.046738
4790750000 -6.7771978 129.20988 -0.73322636 -150.75629 -0.73307401 -150.7686 -5.715363 92.828827
4795500000 -6.7730064 129.19156 -0.74327266 -151.07982 -0.74790728 -151.09012 -5.7047167 92.538261
4800250000 -6.7927341 129.56673 -0.75005043 -151.32841 -0.75218385 -151.33939 -5.7347174 92.126228
4805000000 -6.8481393 130.21407 -0.75256872 -151.532 -0.74829119 -151.56709 -5.7995524 91.79818
4809750000 -6.9241605 131.0265 -0.73821729 -151.73405 -0.73107427 -151.78261 -5.9181657 91.510651
4814500000 -7.0255537 131.63795 -0.72634023 -151.92067 -0.72775286 -151.93266 -6.0633621 91.38208
4819250000 -7.1279478 131.91284 -0.71662074 -152.17863 -0.71477312 -152.18546 -6.2048759 91.350586
4824000000 -7.2328024 131.81894 -0.70867252 -152.44814 -0.70408446 -152.44116 -6.3305306 91.399239
4828750000 -7.3013573 131.24219 -0.69571048 -152.75589 -0.7029044 -152.76506 -6.4086051 91.48999
4833500000 -7.3244367 130.44472 -0.71539068 -153.08517 -0.71103925 -153.09956 -6.4439473 91.596649
4838250000 -7.321887 129.6698 -0.73757654 -153.40335 -0.73732251 -153.42827 -6.4385695 91.5951
4843000000 -7.2881374 129.201 -0.75495493 -153.77306 -0.75825495 -153.78076 -6.4188137 91.438217
4847750000 -7.2537503 129.11517 -0.78009206 -154.09431 -0.77749699 -154.11555 -6.4199047 91.189949
4852500000 -7.245626 129.58426 -0.79489195 -154.36423 -0.79980189 -154.36497 -6.445394 90.884499
4857250000 -7.2741847 130.39612 -0.80234635 -154.5704 -0.80784768 -154.58531 -6.5174255 90.618729
4862000000 -7.3352938 131.41368 -0.80158067 -154.7883 -0.80630058 -154.79718 -6.6331954 90.412506
4866750000 -7.4387999 132.27779 -0.8027404 -154.96078 -0.79887313 -154.95403 -6.7749615 90.320999
4871500000 -7.5681896 132.89645 -0.7859593 -155.16843 -0.7917769 -155.17218 -6.9338794 90.352898
4876250000 -7.6897759 132.95337 -0.77636218 -155.36092 -0.78102577 -155.4021 -7.0673041 90.482307
4881000000 -7.7935157 132.57037 -0.76804471 -155.64111 -0.77806711 -155.6158 -7.1723447 90.71843
4885750000 -7.8435407 131.70001 -0.78531504 -155.91364 -0.78592873 -155.9577 -7.216805 90.88765
4890500000 -7.8330374 130.79778 -0.8012628 -156.22621 -0.79981482 -156.24568 -7.2211361 91.026978
4895250000 -7.7957563 130.10286 -0.82300508 -156.52713 -0.82953286 -156.53624 -7.1993294 90.989059
4900000000 -7.7314534 129.84891 -0.8586055 -156.78616 -0.85422504 -156.80193 -7.2043624 90.765221
4904750000 -7.6875057 130.08586 -0.87049216 -157.05884 -0.88097334 -157.08691 -7.2091961 90.549957
4909500000 -7.6702728 130.89775 -0.88950527 -157.28345 -0.89773494 -157.29027 -7.2814236 90.299728
4914250000 -7.704277 132.03311 -0.9001525 -157.47316 -0.90109855 -157.50278 -7.3921723 90.074173
